 (000.000000)  can0  040   [8]  14 00 00 00 00 00 CE 00
 (000.009758)  can0  040   [8]  14 00 00 00 00 00 CF 00
 (000.009894)  can0  040   [8]  14 00 00 00 00 00 D0 00
 (000.010312)  can0  040   [8]  14 00 00 00 00 00 D1 00
 (000.009586)  can0  040   [8]  14 00 00 00 00 00 D2 00
 (000.010072)  can0  040   [8]  14 00 00 00 00 00 D3 00
 (000.010108)  can0  040   [8]  14 00 00 00 00 00 D4 00
 (000.009938)  can0  040   [8]  14 00 00 00 00 00 D5 00
 (000.010030)  can0  040   [8]  14 00 00 00 00 00 D6 00
 (000.009809)  can0  040   [8]  14 00 00 00 00 00 D7 00
 (000.010343)  can0  040   [8]  14 00 00 00 00 00 D8 00
 (000.009814)  can0  040   [8]  14 00 00 00 00 00 D9 00
 (000.009809)  can0  040   [8]  14 00 00 00 00 00 DA 00
 (000.010150)  can0  040   [8]  14 00 00 00 00 00 DB 00
 (000.010033)  can0  040   [8]  14 00 00 00 00 00 DC 00
 (000.009954)  can0  040   [8]  14 00 00 00 00 00 DD 00
 (000.010017)  can0  040   [8]  14 00 00 00 00 00 DE 00
 (000.010087)  can0  040   [8]  14 00 00 00 00 00 DF 00
 (000.009998)  can0  040   [8]  14 00 00 00 00 00 E0 00
 (000.009893)  can0  040   [8]  14 00 00 00 00 00 E1 00
 (000.010119)  can0  040   [8]  14 00 00 00 00 00 E2 00
 (000.009987)  can0  040   [8]  14 00 00 00 00 00 E3 00
 (000.009951)  can0  040   [8]  14 00 00 00 00 00 E4 00
 (000.010028)  can0  040   [8]  14 00 00 00 00 00 E5 00
 (000.010027)  can0  040   [8]  14 00 00 00 00 00 E6 00
 (000.009885)  can0  040   [8]  14 00 00 00 00 00 E7 00
 (000.010032)  can0  040   [8]  14 00 00 00 00 00 E8 00
 (000.009971)  can0  040   [8]  14 00 00 00 00 00 E9 00
 (000.010086)  can0  040   [8]  14 00 00 00 00 00 EA 00
 (000.009959)  can0  040   [8]  14 00 00 00 00 00 EB 00
 (000.010005)  can0  040   [8]  14 00 00 00 00 00 EC 00
 (000.010178)  can0  040   [8]  14 00 00 00 00 00 ED 00
 (000.010640)  can0  040   [8]  14 00 00 00 00 00 EE 00
 (000.009154)  can0  040   [8]  14 00 00 00 00 00 EF 00
 (000.009925)  can0  040   [8]  14 00 00 00 00 00 F0 00
 (000.010028)  can0  040   [8]  14 00 00 00 00 00 F1 00
 (000.009820)  can0  040   [8]  14 00 00 00 00 00 F2 00
 (000.009960)  can0  040   [8]  14 00 00 00 00 00 F3 00
 (000.010116)  can0  040   [8]  14 00 00 00 00 00 F4 00
 (000.009881)  can0  040   [8]  14 00 00 00 00 00 F5 00
 (000.009951)  can0  040   [8]  14 00 00 00 00 00 F6 00
 (000.009966)  can0  040   [8]  14 00 00 00 00 00 F7 00
 (000.009989)  can0  040   [8]  14 00 00 00 00 00 F8 00
 (000.010118)  can0  040   [8]  14 00 00 00 00 00 F9 00
 (000.009914)  can0  040   [8]  14 00 00 00 00 00 FA 00
 (000.010010)  can0  040   [8]  14 00 00 00 00 00 FB 00
 (000.010022)  can0  040   [8]  14 00 00 00 00 00 FC 00
 (000.009975)  can0  040   [8]  14 00 00 00 00 00 FD 00
 (000.010135)  can0  040   [8]  14 00 00 00 00 00 FE 00
 (000.009868)  can0  040   [8]  14 00 00 00 00 00 00 00
 (000.010003)  can0  040   [8]  14 00 00 00 00 00 01 00
 (000.009983)  can0  040   [8]  14 00 00 00 00 00 02 00
 (000.009987)  can0  040   [8]  14 00 00 00 00 00 03 00
 (000.010126)  can0  040   [8]  14 00 00 00 00 00 04 00
 (000.009889)  can0  040   [8]  14 00 00 00 00 00 05 00
 (000.009957)  can0  040   [8]  14 00 00 00 00 00 06 00
 (000.010033)  can0  040   [8]  14 00 00 00 00 00 07 00
 (000.009962)  can0  040   [8]  14 00 00 00 00 00 08 00
 (000.010163)  can0  040   [8]  14 00 00 00 00 00 09 00
 (000.009824)  can0  040   [8]  14 00 00 00 00 00 0A 00
 (000.010122)  can0  040   [8]  14 00 00 00 00 00 0B 00
 (000.009955)  can0  040   [8]  14 00 00 00 00 00 0C 00
 (000.010037)  can0  040   [8]  14 00 00 00 00 00 0D 00
 (000.009976)  can0  040   [8]  14 00 00 00 00 00 0E 00
 (000.010121)  can0  040   [8]  14 00 00 00 00 00 0F 00
 (000.010025)  can0  040   [8]  14 00 00 00 00 00 10 00
 (000.009889)  can0  040   [8]  14 00 00 00 00 00 11 00
 (000.009976)  can0  040   [8]  14 00 00 00 00 00 12 00
 (000.010034)  can0  040   [8]  14 00 00 00 00 00 13 00
 (000.010362)  can0  040   [8]  14 00 00 00 00 00 14 00
 (000.010072)  can0  040   [8]  14 00 00 00 00 00 15 00
 (000.010024)  can0  040   [8]  14 00 00 00 00 00 16 00
 (000.009997)  can0  040   [8]  14 00 00 00 00 00 17 00
 (000.009840)  can0  040   [8]  14 00 00 00 00 00 18 00
 (000.009982)  can0  040   [8]  14 00 00 00 00 00 19 00
 (000.009921)  can0  040   [8]  14 00 00 00 00 00 1A 00
 (000.009853)  can0  040   [8]  14 00 00 00 00 00 1B 00
 (000.009933)  can0  040   [8]  14 00 00 00 00 00 1C 00
 (000.010044)  can0  040   [8]  14 00 00 00 00 00 1D 00
 (000.009981)  can0  040   [8]  14 00 00 00 00 00 1E 00
 (000.010080)  can0  040   [8]  14 00 00 00 00 00 1F 00
 (000.009860)  can0  040   [8]  14 00 00 00 00 00 20 00
 (000.010127)  can0  040   [8]  14 00 00 00 00 00 21 00
 (000.009849)  can0  040   [8]  14 00 00 00 00 00 22 00
 (000.010154)  can0  040   [8]  14 00 00 00 00 00 23 00
 (000.010011)  can0  040   [8]  14 00 00 00 00 00 24 00
 (000.010234)  can0  040   [8]  14 00 00 00 00 00 25 00
 (000.009866)  can0  040   [8]  14 00 00 00 00 00 26 00
 (000.010126)  can0  040   [8]  14 00 00 00 00 00 27 00
 (000.009925)  can0  040   [8]  14 00 00 00 00 00 28 00
 (000.010001)  can0  040   [8]  14 00 00 00 00 00 29 00
 (000.010370)  can0  040   [8]  14 00 00 00 00 00 2A 00
 (000.009692)  can0  040   [8]  14 00 00 00 00 00 2B 00
 (000.009858)  can0  040   [8]  14 00 00 00 00 00 2C 00
 (000.010121)  can0  040   [8]  14 00 00 00 00 00 2D 00
 (000.009909)  can0  040   [8]  14 00 00 00 00 00 2E 00
 (000.010080)  can0  040   [8]  14 00 00 00 00 00 2F 00
 (000.010061)  can0  040   [8]  14 00 00 00 00 00 30 00
 (000.009918)  can0  040   [8]  14 00 00 00 00 00 31 00
 (000.010079)  can0  040   [8]  14 00 00 00 00 00 32 00
 (000.009987)  can0  040   [8]  14 00 00 00 00 00 33 00
 (000.009950)  can0  040   [8]  14 00 00 00 00 00 34 00
 (000.010045)  can0  040   [8]  14 00 00 00 00 00 35 00
 (000.009933)  can0  040   [8]  14 00 00 00 00 00 36 00
 (000.010070)  can0  040   [8]  14 00 00 00 00 00 37 00
 (000.009998)  can0  040   [8]  14 00 00 00 00 00 38 00
 (000.009977)  can0  040   [8]  14 00 00 00 00 00 39 00
 (000.010052)  can0  040   [8]  14 00 00 00 00 00 3A 00
 (000.009993)  can0  040   [8]  14 00 00 00 00 00 3B 00
 (000.009911)  can0  040   [8]  14 00 00 00 00 00 3C 00
 (000.009984)  can0  040   [8]  14 00 00 00 00 00 3D 00
 (000.010134)  can0  040   [8]  14 00 00 00 00 00 3E 00
 (000.009921)  can0  040   [8]  14 00 00 00 00 00 3F 00
 (000.009980)  can0  040   [8]  14 00 00 00 00 00 40 00
 (000.010066)  can0  040   [8]  14 00 00 00 00 00 41 00
 (000.009957)  can0  040   [8]  14 00 00 00 00 00 42 00
 (000.009940)  can0  040   [8]  14 00 00 00 00 00 43 00
 (000.009919)  can0  040   [8]  14 00 00 00 00 00 44 00
 (000.010075)  can0  040   [8]  14 00 00 00 00 00 45 00
 (000.009989)  can0  040   [8]  14 00 00 00 00 00 46 00
 (000.010234)  can0  040   [8]  14 00 00 00 00 00 47 00
 (000.010072)  can0  040   [8]  14 00 00 00 00 00 48 00
 (000.009974)  can0  040   [8]  14 00 00 00 00 00 49 00
 (000.009831)  can0  040   [8]  14 00 00 00 00 00 4A 00
 (000.010043)  can0  040   [8]  14 00 00 00 00 00 4B 00
 (000.010029)  can0  040   [8]  14 00 00 00 00 00 4C 00
 (000.009915)  can0  040   [8]  14 00 00 00 00 00 4D 00
 (000.009932)  can0  040   [8]  14 00 00 00 00 00 4E 00
 (000.010201)  can0  040   [8]  14 00 00 00 00 00 4F 00
 (000.009893)  can0  040   [8]  14 00 00 00 00 00 50 00
 (000.010089)  can0  040   [8]  14 00 00 00 00 00 51 00
 (000.009890)  can0  040   [8]  14 00 00 00 00 00 52 00
 (000.009857)  can0  040   [8]  14 00 00 00 00 00 53 00
 (000.010017)  can0  040   [8]  14 00 00 00 00 00 54 00
 (000.010116)  can0  040   [8]  14 00 00 00 00 00 55 00
 (000.010013)  can0  040   [8]  14 00 00 00 00 00 56 00
 (000.009927)  can0  040   [8]  14 00 00 00 00 00 57 00
 (000.010060)  can0  040   [8]  14 00 00 00 00 00 58 00
 (000.009934)  can0  040   [8]  14 00 00 00 00 00 59 00
 (000.009851)  can0  040   [8]  14 00 00 00 00 00 5A 00
 (000.010250)  can0  040   [8]  14 00 00 00 00 00 5B 00
 (000.010029)  can0  040   [8]  14 00 00 00 00 00 5C 00
 (000.009932)  can0  040   [8]  14 00 00 00 00 00 5D 00
 (000.009851)  can0  040   [8]  14 00 00 00 00 00 5E 00
 (000.010126)  can0  040   [8]  14 00 00 00 00 00 5F 00
 (000.009856)  can0  040   [8]  14 00 00 00 00 00 60 00
 (000.010138)  can0  040   [8]  14 00 00 00 00 00 61 00
 (000.009862)  can0  040   [8]  14 00 00 00 00 00 62 00
 (000.010023)  can0  040   [8]  14 00 00 00 00 00 63 00
 (000.010172)  can0  040   [8]  14 00 00 00 00 00 64 00
 (000.009894)  can0  040   [8]  14 00 00 00 00 00 65 00
 (000.010147)  can0  040   [8]  14 00 00 00 00 00 66 00
 (000.010089)  can0  040   [8]  14 00 00 00 00 00 67 00
 (000.009837)  can0  040   [8]  14 00 00 00 00 00 68 00
 (000.010203)  can0  040   [8]  14 00 00 00 00 00 69 00
 (000.009817)  can0  040   [8]  14 00 00 00 00 00 6A 00
 (000.010139)  can0  040   [8]  14 00 00 00 00 00 6B 00
 (000.010019)  can0  040   [8]  14 00 00 00 00 00 6C 00
 (000.009831)  can0  040   [8]  14 00 00 00 00 00 6D 00
 (000.009948)  can0  040   [8]  14 00 00 00 00 00 6E 00
 (000.010125)  can0  040   [8]  14 00 00 00 00 00 6F 00
 (000.009816)  can0  040   [8]  14 00 00 00 00 00 70 00
 (000.010085)  can0  040   [8]  14 00 00 00 00 00 71 00
 (000.010023)  can0  040   [8]  14 00 00 00 00 00 72 00
 (000.010059)  can0  040   [8]  14 00 00 00 00 00 73 00
 (000.009906)  can0  040   [8]  14 00 00 00 00 00 74 00
 (000.009924)  can0  040   [8]  14 00 00 00 00 00 75 00
 (000.010061)  can0  040   [8]  14 00 00 00 00 00 76 00
 (000.010112)  can0  040   [8]  14 00 00 00 00 00 77 00
 (000.010107)  can0  040   [8]  14 00 00 00 00 00 78 00
 (000.009923)  can0  040   [8]  14 00 00 00 00 00 79 00
 (000.009935)  can0  040   [8]  14 00 00 00 00 00 7A 00
 (000.010031)  can0  040   [8]  14 00 00 00 00 00 7B 00
 (000.009912)  can0  040   [8]  14 00 00 00 00 00 7C 00
 (000.010055)  can0  040   [8]  14 00 00 00 00 00 7D 00
 (000.009837)  can0  040   [8]  14 00 00 00 00 00 7E 00
 (000.010134)  can0  040   [8]  14 00 00 00 00 00 7F 00
 (000.009957)  can0  040   [8]  14 00 00 00 00 00 80 00
 (000.010073)  can0  040   [8]  14 00 00 00 00 00 81 00
 (000.009997)  can0  040   [8]  14 00 00 00 00 00 82 00
 (000.009970)  can0  040   [8]  14 00 00 00 00 00 83 00
 (000.009982)  can0  040   [8]  14 00 00 00 00 00 84 00
 (000.010001)  can0  040   [8]  14 00 00 00 00 00 85 00
 (000.009943)  can0  040   [8]  14 00 00 00 00 00 86 00
 (000.010026)  can0  040   [8]  14 00 00 00 00 00 87 00
 (000.010079)  can0  040   [8]  14 00 00 00 00 00 88 00
 (000.009936)  can0  040   [8]  14 00 00 00 00 00 89 00
 (000.009958)  can0  040   [8]  14 00 00 00 00 00 8A 00
 (000.010170)  can0  040   [8]  14 00 00 00 00 00 8B 00
 (000.009762)  can0  040   [8]  14 00 00 00 00 00 8C 00
 (000.010006)  can0  040   [8]  14 00 00 00 00 00 8D 00
 (000.010184)  can0  040   [8]  14 00 00 00 00 00 8E 00
 (000.009772)  can0  040   [8]  14 00 00 00 00 00 8F 00
 (000.010157)  can0  040   [8]  14 00 00 00 00 00 90 00
 (000.009942)  can0  040   [8]  14 00 00 00 00 00 91 00
 (000.009969)  can0  040   [8]  14 00 00 00 00 00 92 00
 (000.010126)  can0  040   [8]  14 00 00 00 00 00 93 00
 (000.010067)  can0  040   [8]  14 00 00 00 00 00 94 00
 (000.009792)  can0  040   [8]  14 00 00 00 00 00 95 00
 (000.010005)  can0  040   [8]  14 00 00 00 00 00 96 00
 (000.010108)  can0  040   [8]  14 00 00 00 00 00 97 00
 (000.009991)  can0  040   [8]  14 00 00 00 00 00 98 00
 (000.009972)  can0  040   [8]  14 00 00 00 00 00 99 00
 (000.010020)  can0  040   [8]  14 00 00 00 00 00 9A 00
 (000.010016)  can0  040   [8]  14 00 00 00 00 00 9B 00
 (000.009892)  can0  040   [8]  14 00 00 00 00 00 9C 00
 (000.010161)  can0  040   [8]  14 00 00 00 00 00 9D 00
 (000.009973)  can0  040   [8]  14 00 00 00 00 00 9E 00
 (000.010049)  can0  040   [8]  14 00 00 00 00 00 9F 00
 (000.009824)  can0  040   [8]  14 00 00 00 00 00 A0 00
 (000.010133)  can0  040   [8]  14 00 00 00 00 00 A1 00
 (000.009935)  can0  040   [8]  14 00 00 00 00 00 A2 00
 (000.010136)  can0  040   [8]  14 00 00 00 00 00 A3 00
 (000.009872)  can0  040   [8]  14 00 00 00 00 00 A4 00
 (000.010042)  can0  040   [8]  14 00 00 00 00 00 A5 00
 (000.009966)  can0  040   [8]  14 00 00 00 00 00 A6 00
 (000.010043)  can0  040   [8]  14 00 00 00 00 00 A7 00
 (000.010478)  can0  040   [8]  14 00 00 00 00 00 A8 00
 (000.009482)  can0  040   [8]  14 00 00 00 00 00 A9 00
 (000.010054)  can0  040   [8]  14 00 00 00 00 00 AA 00
 (000.009968)  can0  040   [8]  14 00 00 00 00 00 AB 00
 (000.009994)  can0  040   [8]  14 00 00 00 00 00 AC 00
 (000.009854)  can0  040   [8]  14 00 00 00 00 00 AD 00
 (000.010222)  can0  040   [8]  14 00 00 00 00 00 AE 00
 (000.009832)  can0  040   [8]  14 00 00 00 00 00 AF 00
 (000.010084)  can0  040   [8]  14 00 00 00 00 00 B0 00
 (000.010028)  can0  040   [8]  14 00 00 00 00 00 B1 00
 (000.009945)  can0  040   [8]  14 00 00 00 00 00 B2 00
 (000.010005)  can0  040   [8]  14 00 00 00 00 00 B3 00
 (000.009882)  can0  040   [8]  14 00 00 00 00 00 B4 00
 (000.010109)  can0  040   [8]  14 00 00 00 00 00 B5 00
 (000.010116)  can0  040   [8]  14 00 00 00 00 00 B6 00
 (000.009919)  can0  040   [8]  14 00 00 00 00 00 B7 00
 (000.010408)  can0  040   [8]  14 00 00 00 00 00 B8 00
 (000.009635)  can0  040   [8]  14 00 00 00 00 00 B9 00
 (000.009949)  can0  040   [8]  14 00 00 00 00 00 BA 00
 (000.010027)  can0  040   [8]  14 00 00 00 00 00 BB 00
 (000.010033)  can0  040   [8]  14 00 00 00 00 00 BC 00
 (000.009953)  can0  040   [8]  14 00 00 00 00 00 BD 00
 (000.009926)  can0  040   [8]  14 00 00 00 00 00 BE 00
 (000.010083)  can0  040   [8]  14 00 00 00 00 00 BF 00
 (000.009983)  can0  040   [8]  14 00 00 00 00 00 C0 00
 (000.010147)  can0  040   [8]  14 00 00 00 00 00 C1 00
 (000.009975)  can0  040   [8]  14 00 00 00 00 00 C2 00
 (000.009902)  can0  040   [8]  14 00 00 00 00 00 C3 00
 (000.009970)  can0  040   [8]  14 00 00 00 00 00 C4 00
 (000.010012)  can0  040   [8]  14 00 00 00 00 00 C5 00
 (000.010185)  can0  040   [8]  14 00 00 00 00 00 C6 00
 (000.009841)  can0  040   [8]  14 00 00 00 00 00 C7 00
 (000.009848)  can0  040   [8]  14 00 00 00 00 00 C8 00
 (000.010127)  can0  040   [8]  14 00 00 00 00 00 C9 00
 (000.010142)  can0  040   [8]  14 00 00 00 00 00 CA 00
 (000.009931)  can0  040   [8]  14 00 00 00 00 00 CB 00
 (000.009958)  can0  040   [8]  14 00 00 00 00 00 CC 00
 (000.010009)  can0  040   [8]  14 00 00 00 00 00 CD 00
 (000.010110)  can0  040   [8]  14 00 00 00 00 00 CE 00
 (000.009881)  can0  040   [8]  14 00 00 00 00 00 CF 00
 (000.009961)  can0  040   [8]  14 00 00 00 00 00 D0 00
 (000.010013)  can0  040   [8]  14 00 00 00 00 00 D1 00
 (000.009965)  can0  040   [8]  14 00 00 00 00 00 D2 00
 (000.010011)  can0  040   [8]  14 00 00 00 00 00 D3 00
 (000.010110)  can0  040   [8]  14 00 00 00 00 00 D4 00
 (000.009818)  can0  040   [8]  14 00 00 00 00 00 D5 00
 (000.010005)  can0  040   [8]  14 00 00 00 00 00 D6 00
 (000.010042)  can0  040   [8]  14 00 00 00 00 00 D7 00
 (000.010058)  can0  040   [8]  14 00 00 00 00 00 D8 00
 (000.010021)  can0  040   [8]  14 00 00 00 00 00 D9 00
 (000.009890)  can0  040   [8]  14 00 00 00 00 00 DA 00
 (000.010041)  can0  040   [8]  14 00 00 00 00 00 DB 00
 (000.010041)  can0  040   [8]  14 00 00 00 00 00 DC 00
 (000.009903)  can0  040   [8]  14 00 00 00 00 00 DD 00
 (000.010110)  can0  040   [8]  14 00 00 00 00 00 DE 00
 (000.010034)  can0  040   [8]  14 00 00 00 00 00 DF 00
 (000.010047)  can0  040   [8]  14 00 00 00 00 00 E0 00
 (000.010041)  can0  040   [8]  14 00 00 00 00 00 E1 00
 (000.009892)  can0  040   [8]  14 00 00 00 00 00 E2 00
 (000.009996)  can0  040   [8]  14 00 00 00 00 00 E3 00
 (000.010472)  can0  040   [8]  14 00 00 00 00 00 E4 00
 (000.009445)  can0  040   [8]  14 00 00 00 00 00 E5 00
 (000.010095)  can0  040   [8]  14 00 00 00 00 00 E6 00
 (000.009850)  can0  040   [8]  14 00 00 00 00 00 E7 00
 (000.010171)  can0  040   [8]  14 00 00 00 00 00 E8 00
 (000.009892)  can0  040   [8]  14 00 00 00 00 00 E9 00
 (000.010015)  can0  040   [8]  14 00 00 00 00 00 EA 00
 (000.009991)  can0  040   [8]  14 00 00 00 00 00 EB 00
 (000.010014)  can0  040   [8]  14 00 00 00 00 00 EC 00
 (000.010116)  can0  040   [8]  14 00 00 00 00 00 ED 00
 (000.009850)  can0  040   [8]  14 00 00 00 00 00 EE 00
 (000.010110)  can0  040   [8]  14 00 00 00 00 00 EF 00
 (000.009753)  can0  040   [8]  14 00 00 00 00 00 F0 00
 (000.010196)  can0  040   [8]  14 00 00 00 00 00 F1 00
 (000.009959)  can0  040   [8]  14 00 00 00 00 00 F2 00
 (000.009948)  can0  040   [8]  14 00 00 00 00 00 F3 00
 (000.009927)  can0  040   [8]  14 00 00 00 00 00 F4 00
 (000.010173)  can0  040   [8]  14 00 00 00 00 00 F5 00
 (000.009865)  can0  040   [8]  14 00 00 00 00 00 F6 00
 (000.010151)  can0  040   [8]  14 00 00 00 00 00 F7 00
 (000.009979)  can0  040   [8]  14 00 00 00 00 00 F8 00
 (000.009972)  can0  040   [8]  14 00 00 00 00 00 F9 00
 (000.009821)  can0  040   [8]  14 00 00 00 00 00 FA 00
 (000.010222)  can0  040   [8]  14 00 00 00 00 00 FB 00
 (000.010075)  can0  040   [8]  14 00 00 00 00 00 FC 00
 (000.009895)  can0  040   [8]  14 00 00 00 00 00 FD 00
 (000.009950)  can0  040   [8]  14 00 00 00 00 00 FE 00
 (000.010038)  can0  040   [8]  14 00 00 00 00 00 00 00
 (000.009922)  can0  040   [8]  14 00 00 00 00 00 01 00
 (000.010116)  can0  040   [8]  14 00 00 00 00 00 02 00
 (000.010054)  can0  040   [8]  14 00 00 00 00 00 03 00
 (000.009785)  can0  040   [8]  14 00 00 00 00 00 04 00
 (000.009935)  can0  040   [8]  14 00 00 00 00 00 05 00
 (000.010221)  can0  040   [8]  14 00 00 00 00 00 06 00
 (000.010145)  can0  040   [8]  14 00 00 00 00 00 07 00
 (000.009845)  can0  040   [8]  14 00 00 00 00 00 08 00
 (000.010133)  can0  040   [8]  14 00 00 00 00 00 09 00
 (000.010020)  can0  040   [8]  14 00 00 00 00 00 0A 00
 (000.009929)  can0  040   [8]  14 00 00 00 00 00 0B 00
 (000.010142)  can0  040   [8]  14 00 00 00 00 00 0C 00
 (000.009840)  can0  040   [8]  14 00 00 00 00 00 0D 00
 (000.009926)  can0  040   [8]  14 00 00 00 00 00 0E 00
 (000.009975)  can0  040   [8]  14 00 00 00 00 00 0F 00
 (000.010213)  can0  040   [8]  14 00 00 00 00 00 10 00
 (000.009765)  can0  040   [8]  14 00 00 00 00 00 11 00
 (000.010071)  can0  040   [8]  14 00 00 00 00 00 12 00
 (000.009860)  can0  040   [8]  14 00 00 00 00 00 13 00
 (000.010084)  can0  040   [8]  14 00 00 00 00 00 14 00
 (000.010125)  can0  040   [8]  14 00 00 00 00 00 15 00
 (000.009937)  can0  040   [8]  14 00 00 00 00 00 16 00
 (000.009934)  can0  040   [8]  14 00 00 00 00 00 17 00
 (000.010010)  can0  040   [8]  14 00 00 00 00 00 18 00
 (000.010026)  can0  040   [8]  14 00 00 00 00 00 19 00
 (000.009990)  can0  040   [8]  14 00 00 00 00 00 1A 00
 (000.009979)  can0  040   [8]  14 00 00 00 00 00 1B 00
 (000.010043)  can0  040   [8]  14 00 00 00 00 00 1C 00
 (000.009938)  can0  040   [8]  14 00 00 00 00 00 1D 00
 (000.010018)  can0  040   [8]  14 00 00 00 00 00 1E 00
 (000.010054)  can0  040   [8]  14 00 00 00 00 00 1F 00
 (000.010008)  can0  040   [8]  14 00 00 00 00 00 20 00
 (000.010010)  can0  040   [8]  14 00 00 00 00 00 21 00
 (000.009938)  can0  040   [8]  14 00 00 00 00 00 22 00
 (000.010004)  can0  040   [8]  14 00 00 00 00 00 23 00
 (000.010099)  can0  040   [8]  14 00 00 00 00 00 24 00
 (000.010055)  can0  040   [8]  14 00 00 00 00 00 25 00
 (000.009873)  can0  040   [8]  14 00 00 00 00 00 26 00
 (000.009981)  can0  040   [8]  14 00 00 00 00 00 27 00
 (000.010056)  can0  040   [8]  14 00 00 00 00 00 28 00
 (000.009845)  can0  040   [8]  14 00 00 00 00 00 29 00
 (000.010079)  can0  040   [8]  14 00 00 00 00 00 2A 00
 (000.010095)  can0  040   [8]  14 00 00 00 00 00 2B 00
 (000.009898)  can0  040   [8]  14 00 00 00 00 00 2C 00
 (000.009884)  can0  040   [8]  14 00 00 00 00 00 2D 00
 (000.010067)  can0  040   [8]  14 00 00 00 00 00 2E 00
 (000.010082)  can0  040   [8]  14 00 00 00 00 00 2F 00
 (000.009915)  can0  040   [8]  14 00 00 00 00 00 30 00
 (000.010012)  can0  040   [8]  14 00 00 00 00 00 31 00
 (000.010041)  can0  040   [8]  14 00 00 00 00 00 32 00
 (000.009980)  can0  040   [8]  14 00 00 00 00 00 33 00
 (000.010030)  can0  040   [8]  14 00 00 00 00 00 34 00
 (000.009963)  can0  040   [8]  14 00 00 00 00 00 35 00
 (000.009909)  can0  040   [8]  14 00 00 00 00 00 36 00
 (000.010092)  can0  040   [8]  14 00 00 00 00 00 37 00
 (000.010047)  can0  040   [8]  14 00 00 00 00 00 38 00
 (000.009871)  can0  040   [8]  14 00 00 00 00 00 39 00
 (000.010093)  can0  040   [8]  14 00 00 00 00 00 3A 00
 (000.009887)  can0  040   [8]  14 00 00 00 00 00 3B 00
 (000.010103)  can0  040   [8]  14 00 00 00 00 00 3C 00
 (000.009903)  can0  040   [8]  14 00 00 00 00 00 3D 00
 (000.010132)  can0  040   [8]  14 00 00 00 00 00 3E 00
 (000.009989)  can0  040   [8]  14 00 00 00 00 00 3F 00
 (000.009990)  can0  040   [8]  14 00 00 00 00 00 40 00
 (000.009976)  can0  040   [8]  14 00 00 00 00 00 41 00
 (000.010145)  can0  040   [8]  14 00 00 00 00 00 42 00
 (000.009797)  can0  040   [8]  14 00 00 00 00 00 43 00
 (000.009952)  can0  040   [8]  14 00 00 00 00 00 44 00
 (000.010026)  can0  040   [8]  14 00 00 00 00 00 45 00
 (000.009931)  can0  040   [8]  14 00 00 00 00 00 46 00
 (000.010106)  can0  040   [8]  14 00 00 00 00 00 47 00
 (000.010095)  can0  040   [8]  14 00 00 00 00 00 48 00
 (000.009983)  can0  040   [8]  14 00 00 00 00 00 49 00
 (000.009959)  can0  040   [8]  14 00 00 00 00 00 4A 00
 (000.010033)  can0  040   [8]  14 00 00 00 00 00 4B 00
 (000.010021)  can0  040   [8]  14 00 00 00 00 00 4C 00
 (000.009899)  can0  040   [8]  14 00 00 00 00 00 4D 00
 (000.010053)  can0  040   [8]  14 00 00 00 00 00 4E 00
 (000.010087)  can0  040   [8]  14 00 00 00 00 00 4F 00
 (000.009836)  can0  040   [8]  14 00 00 00 00 00 50 00
 (000.010057)  can0  040   [8]  14 00 00 00 00 00 51 00
 (000.010098)  can0  040   [8]  14 00 00 00 00 00 52 00
 (000.009932)  can0  040   [8]  14 00 00 00 00 00 53 00
 (000.010158)  can0  040   [8]  14 00 00 00 00 00 54 00
 (000.009775)  can0  040   [8]  14 00 00 00 00 00 55 00
 (000.010092)  can0  040   [8]  14 00 00 00 00 00 56 00
 (000.010079)  can0  040   [8]  14 00 00 00 00 00 57 00
 (000.010006)  can0  040   [8]  14 00 00 00 00 00 58 00
 (000.009830)  can0  040   [8]  14 00 00 00 00 00 59 00
 (000.010152)  can0  040   [8]  14 00 00 00 00 00 5A 00
 (000.010021)  can0  040   [8]  14 00 00 00 00 00 5B 00
 (000.009822)  can0  040   [8]  14 00 00 00 00 00 5C 00
 (000.010082)  can0  040   [8]  14 00 00 00 00 00 5D 00
 (000.010120)  can0  040   [8]  14 00 00 00 00 00 5E 00
 (000.009924)  can0  040   [8]  14 00 00 00 00 00 5F 00
 (000.009951)  can0  040   [8]  14 00 00 00 00 00 60 00
 (000.010020)  can0  040   [8]  14 00 00 00 00 00 61 00
 (000.010190)  can0  040   [8]  14 00 00 00 00 00 62 00
 (000.009797)  can0  040   [8]  14 00 00 00 00 00 63 00
 (000.010004)  can0  040   [8]  14 00 00 00 00 00 64 00
 (000.010097)  can0  040   [8]  14 00 00 00 00 00 65 00
 (000.010105)  can0  040   [8]  14 00 00 00 00 00 66 00
 (000.009940)  can0  040   [8]  14 00 00 00 00 00 67 00
 (000.009925)  can0  040   [8]  14 00 00 00 00 00 68 00
 (000.010150)  can0  040   [8]  14 00 00 00 00 00 69 00
 (000.009823)  can0  040   [8]  14 00 00 00 00 00 6A 00
 (000.009844)  can0  040   [8]  14 00 00 00 00 00 6B 00
 (000.009999)  can0  040   [8]  14 00 00 00 00 00 6C 00
 (000.010086)  can0  040   [8]  14 00 00 00 00 00 6D 00
 (000.009964)  can0  040   [8]  14 00 00 00 00 00 6E 00
 (000.009919)  can0  040   [8]  14 00 00 00 00 00 6F 00
 (000.010102)  can0  040   [8]  14 00 00 00 00 00 70 00
 (000.010025)  can0  040   [8]  14 00 00 00 00 00 71 00
 (000.010057)  can0  040   [8]  14 00 00 00 00 00 72 00
 (000.009868)  can0  040   [8]  14 00 00 00 00 00 73 00
 (000.010109)  can0  040   [8]  14 00 00 00 00 00 74 00
 (000.009839)  can0  040   [8]  14 00 00 00 00 00 75 00
 (000.010156)  can0  040   [8]  14 00 00 00 00 00 76 00
 (000.009961)  can0  040   [8]  14 00 00 00 00 00 77 00
 (000.009907)  can0  040   [8]  14 00 00 00 00 00 78 00
 (000.009986)  can0  040   [8]  14 00 00 00 00 00 79 00
 (000.010088)  can0  040   [8]  14 00 00 00 00 00 7A 00
 (000.010082)  can0  040   [8]  14 00 00 00 00 00 7B 00
 (000.009955)  can0  040   [8]  14 00 00 00 00 00 7C 00
 (000.010024)  can0  040   [8]  14 00 00 00 00 00 7D 00
 (000.009877)  can0  040   [8]  14 00 00 00 00 00 7E 00
 (000.010182)  can0  040   [8]  14 00 00 00 00 00 7F 00
 (000.010007)  can0  040   [8]  14 00 00 00 00 00 80 00
 (000.009988)  can0  040   [8]  14 00 00 00 00 00 81 00
 (000.009998)  can0  040   [8]  14 00 00 00 00 00 82 00
 (000.009961)  can0  040   [8]  14 00 00 00 00 00 83 00
 (000.009924)  can0  040   [8]  14 00 00 00 00 00 84 00
 (000.009985)  can0  040   [8]  14 00 00 00 00 00 85 00
 (000.010091)  can0  040   [8]  14 00 00 00 00 00 86 00
 (000.009997)  can0  040   [8]  14 00 00 00 00 00 87 00
 (000.009953)  can0  040   [8]  14 00 00 00 00 00 88 00
 (000.009942)  can0  040   [8]  14 00 00 00 00 00 89 00
 (000.010170)  can0  040   [8]  14 00 00 00 00 00 8A 00
 (000.009867)  can0  040   [8]  14 00 00 00 00 00 8B 00
 (000.010002)  can0  040   [8]  14 00 00 00 00 00 8C 00
 (000.010068)  can0  040   [8]  14 00 00 00 00 00 8D 00
